T2940 000:005.197   SEGGER J-Link V7.56a Log File
T2940 000:005.325   DLL Compiled: Oct 11 2021 16:27:21
T2940 000:005.332   Logging started @ 2024-08-31 04:58
T2940 000:005.338 - 5.341ms
T2940 000:005.350 JLINK_SetWarnOutHandler(...)
T2940 000:005.358 - 0.011ms
T2940 000:005.366 JLINK_OpenEx(...)
T2940 000:006.864   Firmware: J-Link V9 compiled May  7 2021 16:26:12
T2940 000:007.084   Firmware: J-Link V9 compiled May  7 2021 16:26:12
T2940 000:007.243   Decompressing FW timestamp took 129 us
T2940 000:012.775   Hardware: V9.60
T2940 000:012.797   S/N: 59602502
T2940 000:012.807   OEM: SEGGER
T2940 000:012.816   Feature(s): GDB, RDI, FlashBP, FlashDL, JFlash
T2940 000:013.508   TELNET listener socket opened on port 19021
T2940 000:013.603   WEBSRV WEBSRV_Init(): Starting webserver thread(s)
T2940 000:013.807   WEBSRV Webserver running on local port 19080
T2940 000:022.235 - 16.881ms returns "O.K."
T2940 000:022.275 JLINK_GetEmuCaps()
T2940 000:022.282 - 0.010ms returns 0xB9FF7BBF
T2940 000:022.293 JLINK_TIF_GetAvailable(...)
T2940 000:022.413 - 0.124ms
T2940 000:022.424 JLINK_SetErrorOutHandler(...)
T2940 000:022.431 - 0.010ms
T2940 000:022.460 JLINK_ExecCommand("ProjectFile = "Q:\project\stm32\iap\bootloader+app_test\stm32f103c8t6_bootloader_BKY\stm32f103c8t6_bootloader\MDK-ARM\JLinkSettings.ini"", ...). 
T2940 000:030.610   Ref file found at: D:\develop\keil\ARM\Segger\JLinkDevices.ref
T2940 000:030.708   XML referenced by ref file: C:\Program Files\SEGGER\JLink\JLinkDevices.xml
T2940 000:031.317   C:\Program Files\SEGGER\JLink\JLinkDevices.xml evaluated successfully.
T2940 000:060.685 - 38.233ms returns 0x00
T2940 000:071.779 JLINK_ExecCommand("Device = STM32F103C8", ...). 
T2940 000:080.244   Device "STM32F103C8" selected.
T2940 000:080.678 - 8.886ms returns 0x00
T2940 000:080.698 JLINK_ExecCommand("DisableConnectionTimeout", ...). 
T2940 000:080.709 - 0.005ms returns 0x01
T2940 000:080.717 JLINK_GetHardwareVersion()
T2940 000:080.724 - 0.010ms returns 96000
T2940 000:080.734 JLINK_GetDLLVersion()
T2940 000:080.743 - 0.011ms returns 75601
T2940 000:080.752 JLINK_GetOEMString(...)
T2940 000:080.763 JLINK_GetFirmwareString(...)
T2940 000:080.771 - 0.012ms
T2940 000:106.918 JLINK_GetDLLVersion()
T2940 000:106.945 - 0.030ms returns 75601
T2940 000:106.953 JLINK_GetCompileDateTime()
T2940 000:106.960 - 0.009ms
T2940 000:115.547 JLINK_GetFirmwareString(...)
T2940 000:115.567 - 0.023ms
T2940 000:123.704 JLINK_GetHardwareVersion()
T2940 000:123.719 - 0.018ms returns 96000
T2940 000:132.703 JLINK_GetSN()
T2940 000:132.730 - 0.030ms returns 59602502
T2940 000:141.227 JLINK_GetOEMString(...)
T2940 000:159.256 JLINK_TIF_Select(JLINKARM_TIF_SWD)
T2940 000:159.823 - 0.575ms returns 0x00
T2940 000:159.839 JLINK_HasError()
T2940 000:159.860 JLINK_SetSpeed(5000)
T2940 000:159.918 - 0.061ms
T2940 000:159.929 JLINK_GetId()
T2940 000:168.431   InitTarget() start
T2940 000:168.449    J-Link Script File: Executing InitTarget()
T2940 000:180.572   InitTarget() end
T2940 000:190.592   Found SW-DP with ID 0x2BA01477
T2940 000:200.632   DPIDR: 0x2BA01477
T2940 000:209.277   Scanning AP map to find all available APs
T2940 000:217.943   AP[1]: Stopped AP scan as end of AP map has been reached
T2940 000:226.270   AP[0]: AHB-AP (IDR: 0x24770011)
T2940 000:234.482   Iterating through AP map to find AHB-AP to use
T2940 000:244.810   AP[0]: Core found
T2940 000:255.341   AP[0]: AHB-AP ROM base: 0xE00FF000
T2940 000:265.396   CPUID register: 0x412FC231. Implementer code: 0x41 (ARM)
T2940 000:274.118   Found Cortex-M3 r2p1, Little endian.
T2940 000:375.460   -- Max. mem block: 0x00010C40
T2940 000:375.584   CPU_ReadMem(4 bytes @ 0xE000EDF0)
T2940 000:375.824   CPU_WriteMem(4 bytes @ 0xE000EDF0)
T2940 000:376.027   CPU_ReadMem(4 bytes @ 0xE0002000)
T2940 000:385.493   FPUnit: 6 code (BP) slots and 2 literal slots
T2940 000:385.532   CPU_ReadMem(4 bytes @ 0xE000EDFC)
T2940 000:385.794   CPU_WriteMem(4 bytes @ 0xE000EDFC)
T2940 000:386.029   CPU_ReadMem(4 bytes @ 0xE0001000)
T2940 000:386.259   CPU_WriteMem(4 bytes @ 0xE0001000)
T2940 000:386.536   CPU_ReadMem(4 bytes @ 0xE000ED88)
T2940 000:386.781   CPU_WriteMem(4 bytes @ 0xE000ED88)
T2940 000:386.986   CPU_ReadMem(4 bytes @ 0xE000ED88)
T2940 000:387.191   CPU_WriteMem(4 bytes @ 0xE000ED88)
T2940 000:396.782   CoreSight components:
T2940 000:407.155   ROMTbl[0] @ E00FF000
T2940 000:407.189   CPU_ReadMem(64 bytes @ 0xE00FF000)
T2940 000:407.662   CPU_ReadMem(32 bytes @ 0xE000EFE0)
T2940 000:416.913   [0][0]: E000E000 CID B105E00D PID 000BB000 SCS
T2940 000:416.938   CPU_ReadMem(32 bytes @ 0xE0001FE0)
T2940 000:425.421   [0][1]: E0001000 CID B105E00D PID 003BB002 DWT
T2940 000:425.441   CPU_ReadMem(32 bytes @ 0xE0002FE0)
T2940 000:434.612   [0][2]: E0002000 CID B105E00D PID 002BB003 FPB
T2940 000:434.641   CPU_ReadMem(32 bytes @ 0xE0000FE0)
T2940 000:443.218   [0][3]: E0000000 CID B105E00D PID 003BB001 ITM
T2940 000:443.254   CPU_ReadMem(32 bytes @ 0xE0040FE0)
T2940 000:453.062   [0][4]: E0040000 CID B105900D PID 003BB923 TPIU-Lite
T2940 000:453.093   CPU_ReadMem(32 bytes @ 0xE0041FE0)
T2940 000:462.664   [0][5]: E0041000 CID B105900D PID 003BB924 ETM-M3
T2940 000:462.882 - 302.958ms returns 0x2BA01477
T2940 000:462.898 JLINK_GetDLLVersion()
T2940 000:462.904 - 0.009ms returns 75601
T2940 000:462.914 JLINK_CORE_GetFound()
T2940 000:462.920 - 0.009ms returns 0x30000FF
T2940 000:462.929 JLINK_GetDebugInfo(0x100 = JLINKARM_ROM_TABLE_ADDR_INDEX)
T2940 000:462.936   Value=0xE00FF000
T2940 000:462.945 - 0.019ms returns 0
T2940 000:471.287 JLINK_GetDebugInfo(0x100 = JLINKARM_ROM_TABLE_ADDR_INDEX)
T2940 000:471.305   Value=0xE00FF000
T2940 000:471.315 - 0.031ms returns 0
T2940 000:471.323 JLINK_GetDebugInfo(0x101 = JLINKARM_DEBUG_INFO_ETM_ADDR_INDEX)
T2940 000:471.330   Value=0xE0041000
T2940 000:471.339 - 0.019ms returns 0
T2940 000:471.357 JLINK_ReadMemEx(0xE0041FD0, 0x20 Bytes, Flags = 0x02000004)
T2940 000:471.386   CPU_ReadMem(32 bytes @ 0xE0041FD0)
T2940 000:471.719   Data:  04 00 00 00 00 00 00 00 00 00 00 00 00 00 00 00 ...
T2940 000:471.729 - 0.375ms returns 32 (0x20)
T2940 000:471.739 JLINK_GetDebugInfo(0x102 = JLINKARM_DEBUG_INFO_MTB_ADDR_INDEX)
T2940 000:471.745   Value=0x00000000
T2940 000:471.754 - 0.018ms returns 0
T2940 000:471.762 JLINK_GetDebugInfo(0x103 = JLINKARM_DEBUG_INFO_TPIU_ADDR_INDEX)
T2940 000:471.768   Value=0xE0040000
T2940 000:471.777 - 0.018ms returns 0
T2940 000:471.784 JLINK_GetDebugInfo(0x104 = JLINKARM_DEBUG_INFO_ITM_ADDR_INDEX)
T2940 000:471.791   Value=0xE0000000
T2940 000:471.800 - 0.018ms returns 0
T2940 000:471.807 JLINK_GetDebugInfo(0x105 = JLINKARM_DEBUG_INFO_DWT_ADDR_INDEX)
T2940 000:471.814   Value=0xE0001000
T2940 000:471.822 - 0.018ms returns 0
T2940 000:471.830 JLINK_GetDebugInfo(0x106 = JLINKARM_DEBUG_INFO_FPB_ADDR_INDEX)
T2940 000:471.836   Value=0xE0002000
T2940 000:471.845 - 0.018ms returns 0
T2940 000:471.852 JLINK_GetDebugInfo(0x107 = JLINKARM_DEBUG_INFO_NVIC_ADDR_INDEX)
T2940 000:471.859   Value=0xE000E000
T2940 000:471.867 - 0.018ms returns 0
T2940 000:471.875 JLINK_GetDebugInfo(0x10C = JLINKARM_DEBUG_INFO_DBG_ADDR_INDEX)
T2940 000:471.881   Value=0xE000EDF0
T2940 000:471.890 - 0.018ms returns 0
T2940 000:471.897 JLINK_GetDebugInfo(0x01 = Unknown)
T2940 000:471.904   Value=0x00000000
T2940 000:471.913 - 0.018ms returns 0
T2940 000:471.920 JLINK_ReadMemU32(0xE000ED00, 0x1 Items)
T2940 000:471.929   CPU_ReadMem(4 bytes @ 0xE000ED00)
T2940 000:472.135   Data:  31 C2 2F 41
T2940 000:472.145   Debug reg: CPUID
T2940 000:472.154 - 0.237ms returns 1 (0x1)
T2940 000:472.163 JLINK_GetDebugInfo(0x10F = JLINKARM_DEBUG_INFO_HAS_CORTEX_M_SECURITY_EXT_INDEX)
T2940 000:472.170   Value=0x00000000
T2940 000:472.179 - 0.018ms returns 0
T2940 000:472.186 JLINK_HasError()
T2940 000:472.194 JLINK_SetResetType(JLINKARM_CM3_RESET_TYPE_NORMAL)
T2940 000:472.201 - 0.009ms returns JLINKARM_CM3_RESET_TYPE_NORMAL
T2940 000:472.209 JLINK_Reset()
T2940 000:472.230   CPU is running
T2940 000:472.243   CPU_WriteMem(4 bytes @ 0xE000EDF0)
T2940 000:472.452   CPU is running
T2940 000:472.467   CPU_WriteMem(4 bytes @ 0xE000EDFC)
T2940 000:481.948   Reset: Halt core after reset via DEMCR.VC_CORERESET.
T2940 000:491.528   Reset: Reset device via AIRCR.SYSRESETREQ.
T2940 000:491.554   CPU is running
T2940 000:491.568   CPU_WriteMem(4 bytes @ 0xE000ED0C)
T2940 000:543.527   CPU_ReadMem(4 bytes @ 0xE000EDF0)
T2940 000:543.777   CPU_ReadMem(4 bytes @ 0xE000EDF0)
T2940 000:543.977   CPU is running
T2940 000:543.989   CPU_WriteMem(4 bytes @ 0xE000EDF0)
T2940 000:544.198   CPU is running
T2940 000:544.208   CPU_WriteMem(4 bytes @ 0xE000EDFC)
T2940 000:550.255   CPU_ReadMem(4 bytes @ 0xE000EDF0)
T2940 000:552.353   CPU_WriteMem(4 bytes @ 0xE0002000)
T2940 000:552.566   CPU_ReadMem(4 bytes @ 0xE000EDFC)
T2940 000:552.774   CPU_ReadMem(4 bytes @ 0xE0001000)
T2940 000:552.967 - 80.762ms
T2940 000:552.983 JLINK_Halt()
T2940 000:552.990 - 0.010ms returns 0x00
T2940 000:553.000 JLINK_ReadMemU32(0xE000EDF0, 0x1 Items)
T2940 000:553.012   CPU_ReadMem(4 bytes @ 0xE000EDF0)
T2940 000:553.205   Data:  03 00 03 00
T2940 000:553.215   Debug reg: DHCSR
T2940 000:553.224 - 0.227ms returns 1 (0x1)
T2940 000:553.262 JLINK_WriteU32_64(0xE000EDF0, 0xA05F0003)
T2940 000:553.269   Debug reg: DHCSR
T2940 000:553.465   CPU_WriteMem(4 bytes @ 0xE000EDF0)
T2940 000:553.671 - 0.413ms returns 0 (0x00000000)
T2940 000:553.681 JLINK_WriteU32_64(0xE000EDFC, 0x01000000)
T2940 000:553.687   Debug reg: DEMCR
T2940 000:553.699   CPU_WriteMem(4 bytes @ 0xE000EDFC)
T2940 000:553.914 - 0.237ms returns 0 (0x00000000)
T2940 000:588.310 JLINK_GetHWStatus(...)
T2940 000:588.460 - 0.154ms returns 0
T2940 000:615.444 JLINK_GetNumBPUnits(Type = 0xFFFFFF00)
T2940 000:615.465 - 0.024ms returns 0x06
T2940 000:615.474 JLINK_GetNumBPUnits(Type = 0xF0)
T2940 000:615.481 - 0.009ms returns 0x2000
T2940 000:615.488 JLINK_GetNumWPUnits()
T2940 000:615.495 - 0.009ms returns 4
T2940 000:640.444 JLINK_GetSpeed()
T2940 000:640.469 - 0.028ms returns 4000
T2940 000:657.497 JLINK_ReadMemU32(0xE000E004, 0x1 Items)
T2940 000:657.536   CPU_ReadMem(4 bytes @ 0xE000E004)
T2940 000:657.782   Data:  01 00 00 00
T2940 000:657.797 - 0.303ms returns 1 (0x1)
T2940 000:657.806 JLINK_ReadMemU32(0xE000E004, 0x1 Items)
T2940 000:657.816   CPU_ReadMem(4 bytes @ 0xE000E004)
T2940 000:658.022   Data:  01 00 00 00
T2940 000:658.032 - 0.228ms returns 1 (0x1)
T2940 000:658.041 JLINK_WriteMemEx(0xE0001000, 0x0000001C Bytes, Flags = 0x02000004)
T2940 000:658.048   Data:  01 00 00 00 00 00 00 00 00 00 00 00 00 00 00 00 ...
T2940 000:658.062   CPU_WriteMem(28 bytes @ 0xE0001000)
T2940 000:658.355 - 0.321ms returns 0x1C
T2940 000:658.372 JLINK_Halt()
T2940 000:658.379 - 0.009ms returns 0x00
T2940 000:658.386 JLINK_IsHalted()
T2940 000:658.393 - 0.010ms returns TRUE
T2940 000:661.166 JLINK_WriteMem(0x20000000, 0x164 Bytes, ...)
T2940 000:661.177   Data:  00 BE 0A E0 0D 78 2D 06 68 40 08 24 40 00 00 D3 ...
T2940 000:661.436   CPU_WriteMem(356 bytes @ 0x20000000)
T2940 000:662.827 - 1.668ms returns 0x164
T2940 000:662.859 JLINK_HasError()
T2940 000:662.869 JLINK_WriteReg(R0, 0x08000000)
T2940 000:662.878 - 0.012ms returns 0
T2940 000:662.886 JLINK_WriteReg(R1, 0x007A1200)
T2940 000:662.892 - 0.009ms returns 0
T2940 000:662.900 JLINK_WriteReg(R2, 0x00000001)
T2940 000:662.907 - 0.009ms returns 0
T2940 000:662.914 JLINK_WriteReg(R3, 0x00000000)
T2940 000:662.921 - 0.009ms returns 0
T2940 000:662.928 JLINK_WriteReg(R4, 0x00000000)
T2940 000:662.935 - 0.009ms returns 0
T2940 000:662.942 JLINK_WriteReg(R5, 0x00000000)
T2940 000:662.949 - 0.009ms returns 0
T2940 000:662.956 JLINK_WriteReg(R6, 0x00000000)
T2940 000:662.963 - 0.009ms returns 0
T2940 000:662.970 JLINK_WriteReg(R7, 0x00000000)
T2940 000:662.977 - 0.009ms returns 0
T2940 000:662.984 JLINK_WriteReg(R8, 0x00000000)
T2940 000:663.002 - 0.021ms returns 0
T2940 000:663.010 JLINK_WriteReg(R9, 0x20000160)
T2940 000:663.016 - 0.009ms returns 0
T2940 000:663.024 JLINK_WriteReg(R10, 0x00000000)
T2940 000:663.030 - 0.009ms returns 0
T2940 000:663.038 JLINK_WriteReg(R11, 0x00000000)
T2940 000:663.048 - 0.013ms returns 0
T2940 000:663.056 JLINK_WriteReg(R12, 0x00000000)
T2940 000:663.062 - 0.009ms returns 0
T2940 000:663.070 JLINK_WriteReg(R13 (SP), 0x20001000)
T2940 000:663.077 - 0.010ms returns 0
T2940 000:663.084 JLINK_WriteReg(R14, 0x20000001)
T2940 000:663.091 - 0.009ms returns 0
T2940 000:663.098 JLINK_WriteReg(R15 (PC), 0x20000038)
T2940 000:663.105 - 0.009ms returns 0
T2940 000:663.113 JLINK_WriteReg(XPSR, 0x01000000)
T2940 000:663.119 - 0.009ms returns 0
T2940 000:663.126 JLINK_WriteReg(MSP, 0x20001000)
T2940 000:663.133 - 0.009ms returns 0
T2940 000:663.141 JLINK_WriteReg(PSP, 0x20001000)
T2940 000:663.147 - 0.009ms returns 0
T2940 000:663.154 JLINK_WriteReg(CFBP, 0x00000000)
T2940 000:663.161 - 0.009ms returns 0
T2940 000:663.169 JLINK_SetBPEx(Addr = 0x20000000, Type = 0xFFFFFFF2)
T2940 000:663.183   CPU_ReadMem(2 bytes @ 0x20000000)
T2940 000:663.386 - 0.221ms returns 0x00000001
T2940 000:663.396 JLINK_Go()
T2940 000:663.405   CPU_WriteMem(2 bytes @ 0x20000000)
T2940 000:663.621   CPU_ReadMem(4 bytes @ 0xE0001000)
T2940 000:663.811   CPU_WriteMem(4 bytes @ 0xE0002008)
T2940 000:663.821   CPU_WriteMem(4 bytes @ 0xE000200C)
T2940 000:663.831   CPU_WriteMem(4 bytes @ 0xE0002010)
T2940 000:663.840   CPU_WriteMem(4 bytes @ 0xE0002014)
T2940 000:663.849   CPU_WriteMem(4 bytes @ 0xE0002018)
T2940 000:663.858   CPU_WriteMem(4 bytes @ 0xE000201C)
T2940 000:664.787   CPU_WriteMem(4 bytes @ 0xE0001004)
T2940 000:666.634 - 3.243ms
T2940 000:666.646 JLINK_IsHalted()
T2940 000:668.361   CPU_ReadMem(2 bytes @ 0x20000000)
T2940 000:668.575 - 1.937ms returns TRUE
T2940 000:668.591 JLINK_ReadReg(R15 (PC))
T2940 000:668.602 - 0.014ms returns 0x20000000
T2940 000:668.611 JLINK_ClrBPEx(BPHandle = 0x00000001)
T2940 000:668.619 - 0.011ms returns 0x00
T2940 000:668.627 JLINK_ReadReg(R0)
T2940 000:668.635 - 0.011ms returns 0x00000000
T2940 000:668.952 JLINK_HasError()
T2940 000:668.965 JLINK_WriteReg(R0, 0x08000000)
T2940 000:668.975 - 0.013ms returns 0
T2940 000:668.984 JLINK_WriteReg(R1, 0x007A1200)
T2940 000:668.992 - 0.011ms returns 0
T2940 000:669.001 JLINK_WriteReg(R2, 0x00000001)
T2940 000:669.008 - 0.011ms returns 0
T2940 000:669.017 JLINK_WriteReg(R3, 0x00000000)
T2940 000:669.024 - 0.011ms returns 0
T2940 000:669.033 JLINK_WriteReg(R4, 0x00000000)
T2940 000:669.041 - 0.011ms returns 0
T2940 000:669.049 JLINK_WriteReg(R5, 0x00000000)
T2940 000:669.057 - 0.011ms returns 0
T2940 000:669.065 JLINK_WriteReg(R6, 0x00000000)
T2940 000:669.073 - 0.011ms returns 0
T2940 000:669.081 JLINK_WriteReg(R7, 0x00000000)
T2940 000:669.089 - 0.011ms returns 0
T2940 000:669.098 JLINK_WriteReg(R8, 0x00000000)
T2940 000:669.105 - 0.011ms returns 0
T2940 000:669.114 JLINK_WriteReg(R9, 0x20000160)
T2940 000:669.121 - 0.011ms returns 0
T2940 000:669.130 JLINK_WriteReg(R10, 0x00000000)
T2940 000:669.137 - 0.011ms returns 0
T2940 000:669.146 JLINK_WriteReg(R11, 0x00000000)
T2940 000:669.153 - 0.011ms returns 0
T2940 000:669.162 JLINK_WriteReg(R12, 0x00000000)
T2940 000:669.169 - 0.010ms returns 0
T2940 000:669.178 JLINK_WriteReg(R13 (SP), 0x20001000)
T2940 000:669.185 - 0.012ms returns 0
T2940 000:669.197 JLINK_WriteReg(R14, 0x20000001)
T2940 000:669.206 - 0.014ms returns 0
T2940 000:669.217 JLINK_WriteReg(R15 (PC), 0x2000007C)
T2940 000:669.225 - 0.011ms returns 0
T2940 000:669.234 JLINK_WriteReg(XPSR, 0x01000000)
T2940 000:669.242 - 0.011ms returns 0
T2940 000:669.250 JLINK_WriteReg(MSP, 0x20001000)
T2940 000:669.258 - 0.011ms returns 0
T2940 000:669.267 JLINK_WriteReg(PSP, 0x20001000)
T2940 000:669.275 - 0.013ms returns 0
T2940 000:669.286 JLINK_WriteReg(CFBP, 0x00000000)
T2940 000:669.294 - 0.011ms returns 0
T2940 000:669.303 JLINK_SetBPEx(Addr = 0x20000000, Type = 0xFFFFFFF2)
T2940 000:669.311 - 0.012ms returns 0x00000002
T2940 000:669.320 JLINK_Go()
T2940 000:669.334   CPU_ReadMem(4 bytes @ 0xE0001000)
T2940 000:671.212 - 1.899ms
T2940 000:671.225 JLINK_IsHalted()
T2940 000:671.410 - 0.189ms returns FALSE
T2940 000:671.472 JLINK_HasError()
T2940 000:693.291 JLINK_IsHalted()
T2940 000:695.135   CPU_ReadMem(2 bytes @ 0x20000000)
T2940 000:695.363 - 2.077ms returns TRUE
T2940 000:695.377 JLINK_ReadReg(R15 (PC))
T2940 000:695.388 - 0.014ms returns 0x20000000
T2940 000:695.396 JLINK_ClrBPEx(BPHandle = 0x00000002)
T2940 000:695.403 - 0.010ms returns 0x00
T2940 000:695.411 JLINK_ReadReg(R0)
T2940 000:695.418 - 0.010ms returns 0x00000000
T2940 000:747.521 JLINK_HasError()
T2940 000:747.547 JLINK_WriteReg(R0, 0x00000001)
T2940 000:747.558 - 0.015ms returns 0
T2940 000:747.567 JLINK_WriteReg(R1, 0x007A1200)
T2940 000:747.574 - 0.009ms returns 0
T2940 000:747.582 JLINK_WriteReg(R2, 0x00000001)
T2940 000:747.588 - 0.009ms returns 0
T2940 000:747.596 JLINK_WriteReg(R3, 0x00000000)
T2940 000:747.602 - 0.009ms returns 0
T2940 000:747.610 JLINK_WriteReg(R4, 0x00000000)
T2940 000:747.617 - 0.009ms returns 0
T2940 000:747.624 JLINK_WriteReg(R5, 0x00000000)
T2940 000:747.631 - 0.009ms returns 0
T2940 000:747.638 JLINK_WriteReg(R6, 0x00000000)
T2940 000:747.645 - 0.009ms returns 0
T2940 000:747.653 JLINK_WriteReg(R7, 0x00000000)
T2940 000:747.659 - 0.009ms returns 0
T2940 000:747.667 JLINK_WriteReg(R8, 0x00000000)
T2940 000:747.673 - 0.009ms returns 0
T2940 000:747.681 JLINK_WriteReg(R9, 0x20000160)
T2940 000:747.687 - 0.009ms returns 0
T2940 000:747.695 JLINK_WriteReg(R10, 0x00000000)
T2940 000:747.701 - 0.009ms returns 0
T2940 000:747.709 JLINK_WriteReg(R11, 0x00000000)
T2940 000:747.715 - 0.009ms returns 0
T2940 000:747.723 JLINK_WriteReg(R12, 0x00000000)
T2940 000:747.729 - 0.009ms returns 0
T2940 000:747.737 JLINK_WriteReg(R13 (SP), 0x20001000)
T2940 000:747.744 - 0.010ms returns 0
T2940 000:747.752 JLINK_WriteReg(R14, 0x20000001)
T2940 000:747.759 - 0.009ms returns 0
T2940 000:747.766 JLINK_WriteReg(R15 (PC), 0x2000006A)
T2940 000:747.773 - 0.009ms returns 0
T2940 000:747.780 JLINK_WriteReg(XPSR, 0x01000000)
T2940 000:747.787 - 0.009ms returns 0
T2940 000:747.795 JLINK_WriteReg(MSP, 0x20001000)
T2940 000:747.801 - 0.009ms returns 0
T2940 000:747.809 JLINK_WriteReg(PSP, 0x20001000)
T2940 000:747.815 - 0.009ms returns 0
T2940 000:747.823 JLINK_WriteReg(CFBP, 0x00000000)
T2940 000:747.829 - 0.009ms returns 0
T2940 000:747.837 JLINK_SetBPEx(Addr = 0x20000000, Type = 0xFFFFFFF2)
T2940 000:747.845 - 0.011ms returns 0x00000003
T2940 000:747.853 JLINK_Go()
T2940 000:747.872   CPU_ReadMem(4 bytes @ 0xE0001000)
T2940 000:749.785 - 1.940ms
T2940 000:749.802 JLINK_IsHalted()
T2940 000:751.575   CPU_ReadMem(2 bytes @ 0x20000000)
T2940 000:751.812 - 2.019ms returns TRUE
T2940 000:751.828 JLINK_ReadReg(R15 (PC))
T2940 000:751.837 - 0.012ms returns 0x20000000
T2940 000:751.846 JLINK_ClrBPEx(BPHandle = 0x00000003)
T2940 000:751.853 - 0.010ms returns 0x00
T2940 000:751.861 JLINK_ReadReg(R0)
T2940 000:751.868 - 0.010ms returns 0x00000000
T2940 000:763.553 JLINK_WriteMem(0x20000000, 0x164 Bytes, ...)
T2940 000:763.568   Data:  00 BE 0A E0 0D 78 2D 06 68 40 08 24 40 00 00 D3 ...
T2940 000:763.591   CPU_WriteMem(356 bytes @ 0x20000000)
T2940 000:765.036 - 1.491ms returns 0x164
T2940 000:765.066 JLINK_HasError()
T2940 000:765.075 JLINK_WriteReg(R0, 0x08000000)
T2940 000:765.085 - 0.012ms returns 0
T2940 000:765.093 JLINK_WriteReg(R1, 0x007A1200)
T2940 000:765.100 - 0.009ms returns 0
T2940 000:765.107 JLINK_WriteReg(R2, 0x00000002)
T2940 000:765.114 - 0.009ms returns 0
T2940 000:765.121 JLINK_WriteReg(R3, 0x00000000)
T2940 000:765.128 - 0.009ms returns 0
T2940 000:765.136 JLINK_WriteReg(R4, 0x00000000)
T2940 000:765.142 - 0.009ms returns 0
T2940 000:765.150 JLINK_WriteReg(R5, 0x00000000)
T2940 000:765.156 - 0.009ms returns 0
T2940 000:765.164 JLINK_WriteReg(R6, 0x00000000)
T2940 000:765.170 - 0.009ms returns 0
T2940 000:765.178 JLINK_WriteReg(R7, 0x00000000)
T2940 000:765.184 - 0.009ms returns 0
T2940 000:765.192 JLINK_WriteReg(R8, 0x00000000)
T2940 000:765.198 - 0.009ms returns 0
T2940 000:765.206 JLINK_WriteReg(R9, 0x20000160)
T2940 000:765.213 - 0.009ms returns 0
T2940 000:765.220 JLINK_WriteReg(R10, 0x00000000)
T2940 000:765.238 - 0.020ms returns 0
T2940 000:765.245 JLINK_WriteReg(R11, 0x00000000)
T2940 000:765.252 - 0.009ms returns 0
T2940 000:765.260 JLINK_WriteReg(R12, 0x00000000)
T2940 000:765.266 - 0.009ms returns 0
T2940 000:765.274 JLINK_WriteReg(R13 (SP), 0x20001000)
T2940 000:765.282 - 0.011ms returns 0
T2940 000:765.290 JLINK_WriteReg(R14, 0x20000001)
T2940 000:765.299 - 0.012ms returns 0
T2940 000:765.307 JLINK_WriteReg(R15 (PC), 0x20000038)
T2940 000:765.314 - 0.011ms returns 0
T2940 000:765.325 JLINK_WriteReg(XPSR, 0x01000000)
T2940 000:765.337 - 0.018ms returns 0
T2940 000:765.350 JLINK_WriteReg(MSP, 0x20001000)
T2940 000:765.359 - 0.012ms returns 0
T2940 000:765.368 JLINK_WriteReg(PSP, 0x20001000)
T2940 000:765.377 - 0.012ms returns 0
T2940 000:765.386 JLINK_WriteReg(CFBP, 0x00000000)
T2940 000:765.392 - 0.010ms returns 0
T2940 000:765.400 JLINK_SetBPEx(Addr = 0x20000000, Type = 0xFFFFFFF2)
T2940 000:765.411   CPU_ReadMem(2 bytes @ 0x20000000)
T2940 000:765.642 - 0.246ms returns 0x00000004
T2940 000:765.653 JLINK_Go()
T2940 000:765.662   CPU_WriteMem(2 bytes @ 0x20000000)
T2940 000:765.928   CPU_ReadMem(4 bytes @ 0xE0001000)
T2940 000:767.784 - 2.136ms
T2940 000:767.796 JLINK_IsHalted()
T2940 000:769.517   CPU_ReadMem(2 bytes @ 0x20000000)
T2940 000:769.774 - 1.981ms returns TRUE
T2940 000:769.784 JLINK_ReadReg(R15 (PC))
T2940 000:769.792 - 0.011ms returns 0x20000000
T2940 000:769.800 JLINK_ClrBPEx(BPHandle = 0x00000004)
T2940 000:769.807 - 0.010ms returns 0x00
T2940 000:769.815 JLINK_ReadReg(R0)
T2940 000:769.822 - 0.009ms returns 0x00000000
T2940 000:770.093 JLINK_WriteMem(0x20000164, 0x29C Bytes, ...)
T2940 000:770.103   Data:  C0 15 00 20 01 01 00 08 0D 20 00 08 DD 19 00 08 ...
T2940 000:770.118   CPU_WriteMem(668 bytes @ 0x20000164)
T2940 000:772.455 - 2.370ms returns 0x29C
T2940 000:772.471 JLINK_WriteMem(0x20000400, 0x164 Bytes, ...)
T2940 000:772.479   Data:  92 F8 E0 10 92 F8 E2 30 8E EA 01 0E 92 F8 E1 10 ...
T2940 000:772.495   CPU_WriteMem(356 bytes @ 0x20000400)
T2940 000:773.879 - 1.415ms returns 0x164
T2940 000:773.892 JLINK_HasError()
T2940 000:773.901 JLINK_WriteReg(R0, 0x08000000)
T2940 000:773.909 - 0.011ms returns 0
T2940 000:773.917 JLINK_WriteReg(R1, 0x00000400)
T2940 000:773.924 - 0.009ms returns 0
T2940 000:773.931 JLINK_WriteReg(R2, 0x20000164)
T2940 000:773.938 - 0.009ms returns 0
T2940 000:773.945 JLINK_WriteReg(R3, 0x00000000)
T2940 000:773.952 - 0.009ms returns 0
T2940 000:773.959 JLINK_WriteReg(R4, 0x00000000)
T2940 000:773.966 - 0.009ms returns 0
T2940 000:773.973 JLINK_WriteReg(R5, 0x00000000)
T2940 000:773.980 - 0.009ms returns 0
T2940 000:773.987 JLINK_WriteReg(R6, 0x00000000)
T2940 000:773.994 - 0.009ms returns 0
T2940 000:774.001 JLINK_WriteReg(R7, 0x00000000)
T2940 000:774.008 - 0.009ms returns 0
T2940 000:774.015 JLINK_WriteReg(R8, 0x00000000)
T2940 000:774.022 - 0.009ms returns 0
T2940 000:774.029 JLINK_WriteReg(R9, 0x20000160)
T2940 000:774.036 - 0.009ms returns 0
T2940 000:774.043 JLINK_WriteReg(R10, 0x00000000)
T2940 000:774.050 - 0.009ms returns 0
T2940 000:774.057 JLINK_WriteReg(R11, 0x00000000)
T2940 000:774.064 - 0.009ms returns 0
T2940 000:774.071 JLINK_WriteReg(R12, 0x00000000)
T2940 000:774.078 - 0.009ms returns 0
T2940 000:774.085 JLINK_WriteReg(R13 (SP), 0x20001000)
T2940 000:774.092 - 0.010ms returns 0
T2940 000:774.099 JLINK_WriteReg(R14, 0x20000001)
T2940 000:774.106 - 0.009ms returns 0
T2940 000:774.114 JLINK_WriteReg(R15 (PC), 0x200000F4)
T2940 000:774.120 - 0.009ms returns 0
T2940 000:774.128 JLINK_WriteReg(XPSR, 0x01000000)
T2940 000:774.134 - 0.009ms returns 0
T2940 000:774.142 JLINK_WriteReg(MSP, 0x20001000)
T2940 000:774.148 - 0.009ms returns 0
T2940 000:774.156 JLINK_WriteReg(PSP, 0x20001000)
T2940 000:774.162 - 0.009ms returns 0
T2940 000:774.170 JLINK_WriteReg(CFBP, 0x00000000)
T2940 000:774.176 - 0.009ms returns 0
T2940 000:774.184 JLINK_SetBPEx(Addr = 0x20000000, Type = 0xFFFFFFF2)
T2940 000:774.191 - 0.010ms returns 0x00000005
T2940 000:774.202 JLINK_Go()
T2940 000:774.215   CPU_ReadMem(4 bytes @ 0xE0001000)
T2940 000:776.094 - 1.899ms
T2940 000:776.107 JLINK_IsHalted()
T2940 000:776.294 - 0.190ms returns FALSE
T2940 000:776.305 JLINK_HasError()
T2940 000:787.311 JLINK_IsHalted()
T2940 000:787.556 - 0.250ms returns FALSE
T2940 000:787.570 JLINK_HasError()
T2940 000:789.314 JLINK_IsHalted()
T2940 000:791.084   CPU_ReadMem(2 bytes @ 0x20000000)
T2940 000:791.289 - 1.979ms returns TRUE
T2940 000:791.300 JLINK_ReadReg(R15 (PC))
T2940 000:791.311 - 0.014ms returns 0x20000000
T2940 000:791.319 JLINK_ClrBPEx(BPHandle = 0x00000005)
T2940 000:791.326 - 0.010ms returns 0x00
T2940 000:791.334 JLINK_ReadReg(R0)
T2940 000:791.341 - 0.010ms returns 0x00000000
T2940 000:791.861 JLINK_WriteMem(0x20000164, 0x29C Bytes, ...)
T2940 000:791.872   Data:  16 28 4F EA 16 4E 4F EA 16 6B 22 0A 4F EA 14 4C ...
T2940 000:791.888   CPU_WriteMem(668 bytes @ 0x20000164)
T2940 000:794.221 - 2.368ms returns 0x29C
T2940 000:794.237 JLINK_WriteMem(0x20000400, 0x164 Bytes, ...)
T2940 000:794.245   Data:  1D 7C 0D 98 5E 7C 80 EA 05 0E 0F 98 0A 99 80 EA ...
T2940 000:794.261   CPU_WriteMem(356 bytes @ 0x20000400)
T2940 000:795.649 - 1.420ms returns 0x164
T2940 000:795.665 JLINK_HasError()
T2940 000:795.675 JLINK_WriteReg(R0, 0x08000400)
T2940 000:795.686 - 0.014ms returns 0
T2940 000:795.695 JLINK_WriteReg(R1, 0x00000400)
T2940 000:795.703 - 0.011ms returns 0
T2940 000:795.712 JLINK_WriteReg(R2, 0x20000164)
T2940 000:795.720 - 0.011ms returns 0
T2940 000:795.729 JLINK_WriteReg(R3, 0x00000000)
T2940 000:795.737 - 0.011ms returns 0
T2940 000:795.746 JLINK_WriteReg(R4, 0x00000000)
T2940 000:795.754 - 0.011ms returns 0
T2940 000:795.763 JLINK_WriteReg(R5, 0x00000000)
T2940 000:795.770 - 0.011ms returns 0
T2940 000:795.779 JLINK_WriteReg(R6, 0x00000000)
T2940 000:795.787 - 0.011ms returns 0
T2940 000:795.796 JLINK_WriteReg(R7, 0x00000000)
T2940 000:795.804 - 0.011ms returns 0
T2940 000:795.813 JLINK_WriteReg(R8, 0x00000000)
T2940 000:795.821 - 0.011ms returns 0
T2940 000:795.830 JLINK_WriteReg(R9, 0x20000160)
T2940 000:795.838 - 0.011ms returns 0
T2940 000:795.847 JLINK_WriteReg(R10, 0x00000000)
T2940 000:795.854 - 0.011ms returns 0
T2940 000:795.864 JLINK_WriteReg(R11, 0x00000000)
T2940 000:795.871 - 0.011ms returns 0
T2940 000:795.880 JLINK_WriteReg(R12, 0x00000000)
T2940 000:795.888 - 0.011ms returns 0
T2940 000:795.897 JLINK_WriteReg(R13 (SP), 0x20001000)
T2940 000:795.906 - 0.012ms returns 0
T2940 000:795.915 JLINK_WriteReg(R14, 0x20000001)
T2940 000:795.922 - 0.011ms returns 0
T2940 000:795.932 JLINK_WriteReg(R15 (PC), 0x200000F4)
T2940 000:795.940 - 0.011ms returns 0
T2940 000:795.949 JLINK_WriteReg(XPSR, 0x01000000)
T2940 000:795.957 - 0.011ms returns 0
T2940 000:795.966 JLINK_WriteReg(MSP, 0x20001000)
T2940 000:795.974 - 0.011ms returns 0
T2940 000:795.983 JLINK_WriteReg(PSP, 0x20001000)
T2940 000:795.990 - 0.011ms returns 0
T2940 000:795.999 JLINK_WriteReg(CFBP, 0x00000000)
T2940 000:796.007 - 0.011ms returns 0
T2940 000:796.016 JLINK_SetBPEx(Addr = 0x20000000, Type = 0xFFFFFFF2)
T2940 000:796.025 - 0.012ms returns 0x00000006
T2940 000:796.034 JLINK_Go()
T2940 000:796.049   CPU_ReadMem(4 bytes @ 0xE0001000)
T2940 000:797.920 - 1.892ms
T2940 000:797.933 JLINK_IsHalted()
T2940 000:798.126 - 0.196ms returns FALSE
T2940 000:798.135 JLINK_HasError()
T2940 000:802.401 JLINK_IsHalted()
T2940 000:802.607 - 0.211ms returns FALSE
T2940 000:802.618 JLINK_HasError()
T2940 000:804.314 JLINK_IsHalted()
T2940 000:804.514 - 0.207ms returns FALSE
T2940 000:804.530 JLINK_HasError()
T2940 000:806.313 JLINK_IsHalted()
T2940 000:806.510 - 0.200ms returns FALSE
T2940 000:806.520 JLINK_HasError()
T2940 000:809.313 JLINK_IsHalted()
T2940 000:809.510 - 0.201ms returns FALSE
T2940 000:809.520 JLINK_HasError()
T2940 000:811.315 JLINK_IsHalted()
T2940 000:813.073   CPU_ReadMem(2 bytes @ 0x20000000)
T2940 000:813.284 - 1.978ms returns TRUE
T2940 000:813.300 JLINK_ReadReg(R15 (PC))
T2940 000:813.321 - 0.028ms returns 0x20000000
T2940 000:813.340 JLINK_ClrBPEx(BPHandle = 0x00000006)
T2940 000:813.350 - 0.013ms returns 0x00
T2940 000:813.358 JLINK_ReadReg(R0)
T2940 000:813.365 - 0.010ms returns 0x00000000
T2940 000:814.060 JLINK_WriteMem(0x20000164, 0x29C Bytes, ...)
T2940 000:814.071   Data:  04 E0 CA 69 42 F0 02 02 CA 61 10 22 03 68 5B 07 ...
T2940 000:814.087   CPU_WriteMem(668 bytes @ 0x20000164)
T2940 000:816.424 - 2.369ms returns 0x29C
T2940 000:816.436 JLINK_WriteMem(0x20000400, 0x164 Bytes, ...)
T2940 000:816.444   Data:  82 B0 0E 68 00 2E 00 F0 F3 80 41 F2 00 42 C4 F2 ...
T2940 000:816.457   CPU_WriteMem(356 bytes @ 0x20000400)
T2940 000:817.830 - 1.398ms returns 0x164
T2940 000:817.841 JLINK_HasError()
T2940 000:817.849 JLINK_WriteReg(R0, 0x08000800)
T2940 000:817.856 - 0.010ms returns 0
T2940 000:817.864 JLINK_WriteReg(R1, 0x00000400)
T2940 000:817.871 - 0.009ms returns 0
T2940 000:817.879 JLINK_WriteReg(R2, 0x20000164)
T2940 000:817.885 - 0.009ms returns 0
T2940 000:817.893 JLINK_WriteReg(R3, 0x00000000)
T2940 000:817.899 - 0.009ms returns 0
T2940 000:817.907 JLINK_WriteReg(R4, 0x00000000)
T2940 000:817.913 - 0.009ms returns 0
T2940 000:817.921 JLINK_WriteReg(R5, 0x00000000)
T2940 000:817.928 - 0.009ms returns 0
T2940 000:817.935 JLINK_WriteReg(R6, 0x00000000)
T2940 000:817.942 - 0.009ms returns 0
T2940 000:817.949 JLINK_WriteReg(R7, 0x00000000)
T2940 000:817.956 - 0.009ms returns 0
T2940 000:817.963 JLINK_WriteReg(R8, 0x00000000)
T2940 000:817.970 - 0.009ms returns 0
T2940 000:817.977 JLINK_WriteReg(R9, 0x20000160)
T2940 000:817.984 - 0.009ms returns 0
T2940 000:817.991 JLINK_WriteReg(R10, 0x00000000)
T2940 000:817.998 - 0.009ms returns 0
T2940 000:818.005 JLINK_WriteReg(R11, 0x00000000)
T2940 000:818.012 - 0.009ms returns 0
T2940 000:818.019 JLINK_WriteReg(R12, 0x00000000)
T2940 000:818.026 - 0.009ms returns 0
T2940 000:818.033 JLINK_WriteReg(R13 (SP), 0x20001000)
T2940 000:818.040 - 0.010ms returns 0
T2940 000:818.048 JLINK_WriteReg(R14, 0x20000001)
T2940 000:818.054 - 0.009ms returns 0
T2940 000:818.062 JLINK_WriteReg(R15 (PC), 0x200000F4)
T2940 000:818.069 - 0.009ms returns 0
T2940 000:818.076 JLINK_WriteReg(XPSR, 0x01000000)
T2940 000:818.083 - 0.009ms returns 0
T2940 000:818.090 JLINK_WriteReg(MSP, 0x20001000)
T2940 000:818.097 - 0.009ms returns 0
T2940 000:818.104 JLINK_WriteReg(PSP, 0x20001000)
T2940 000:818.111 - 0.009ms returns 0
T2940 000:818.118 JLINK_WriteReg(CFBP, 0x00000000)
T2940 000:818.125 - 0.009ms returns 0
T2940 000:818.133 JLINK_SetBPEx(Addr = 0x20000000, Type = 0xFFFFFFF2)
T2940 000:818.140 - 0.010ms returns 0x00000007
T2940 000:818.148 JLINK_Go()
T2940 000:818.160   CPU_ReadMem(4 bytes @ 0xE0001000)
T2940 000:820.034 - 1.893ms
T2940 000:820.047 JLINK_IsHalted()
T2940 000:820.233 - 0.190ms returns FALSE
T2940 000:820.243 JLINK_HasError()
T2940 000:827.898 JLINK_IsHalted()
T2940 000:828.135 - 0.241ms returns FALSE
T2940 000:828.146 JLINK_HasError()
T2940 000:829.896 JLINK_IsHalted()
T2940 000:830.106 - 0.217ms returns FALSE
T2940 000:830.121 JLINK_HasError()
T2940 000:834.897 JLINK_IsHalted()
T2940 000:836.670   CPU_ReadMem(2 bytes @ 0x20000000)
T2940 000:836.921 - 2.032ms returns TRUE
T2940 000:836.937 JLINK_ReadReg(R15 (PC))
T2940 000:836.947 - 0.014ms returns 0x20000000
T2940 000:836.956 JLINK_ClrBPEx(BPHandle = 0x00000007)
T2940 000:836.964 - 0.011ms returns 0x00
T2940 000:836.973 JLINK_ReadReg(R0)
T2940 000:836.981 - 0.011ms returns 0x00000000
T2940 000:837.910 JLINK_WriteMem(0x20000164, 0x29C Bytes, ...)
T2940 000:837.921   Data:  06 E0 CA 68 02 F1 04 09 02 E0 CA 68 02 F1 0C 09 ...
T2940 000:837.938   CPU_WriteMem(668 bytes @ 0x20000164)
T2940 000:840.278 - 2.376ms returns 0x29C
T2940 000:840.294 JLINK_WriteMem(0x20000400, 0x164 Bytes, ...)
T2940 000:840.302   Data:  B0 BD 08 06 01 F0 07 00 00 EB 80 01 04 EB C1 02 ...
T2940 000:840.318   CPU_WriteMem(356 bytes @ 0x20000400)
T2940 000:841.772 - 1.483ms returns 0x164
T2940 000:841.784 JLINK_HasError()
T2940 000:841.794 JLINK_WriteReg(R0, 0x08000C00)
T2940 000:841.865 - 0.078ms returns 0
T2940 000:841.878 JLINK_WriteReg(R1, 0x00000400)
T2940 000:841.886 - 0.014ms returns 0
T2940 000:841.899 JLINK_WriteReg(R2, 0x20000164)
T2940 000:841.908 - 0.014ms returns 0
T2940 000:841.920 JLINK_WriteReg(R3, 0x00000000)
T2940 000:841.930 - 0.015ms returns 0
T2940 000:841.941 JLINK_WriteReg(R4, 0x00000000)
T2940 000:841.951 - 0.015ms returns 0
T2940 000:841.963 JLINK_WriteReg(R5, 0x00000000)
T2940 000:841.973 - 0.015ms returns 0
T2940 000:841.985 JLINK_WriteReg(R6, 0x00000000)
T2940 000:841.995 - 0.015ms returns 0
T2940 000:842.007 JLINK_WriteReg(R7, 0x00000000)
T2940 000:842.017 - 0.015ms returns 0
T2940 000:842.027 JLINK_WriteReg(R8, 0x00000000)
T2940 000:842.035 - 0.012ms returns 0
T2940 000:842.045 JLINK_WriteReg(R9, 0x20000160)
T2940 000:842.053 - 0.011ms returns 0
T2940 000:842.062 JLINK_WriteReg(R10, 0x00000000)
T2940 000:842.070 - 0.011ms returns 0
T2940 000:842.079 JLINK_WriteReg(R11, 0x00000000)
T2940 000:842.087 - 0.011ms returns 0
T2940 000:842.096 JLINK_WriteReg(R12, 0x00000000)
T2940 000:842.104 - 0.011ms returns 0
T2940 000:842.113 JLINK_WriteReg(R13 (SP), 0x20001000)
T2940 000:842.121 - 0.012ms returns 0
T2940 000:842.130 JLINK_WriteReg(R14, 0x20000001)
T2940 000:842.138 - 0.011ms returns 0
T2940 000:842.147 JLINK_WriteReg(R15 (PC), 0x200000F4)
T2940 000:842.155 - 0.011ms returns 0
T2940 000:842.164 JLINK_WriteReg(XPSR, 0x01000000)
T2940 000:842.172 - 0.011ms returns 0
T2940 000:842.181 JLINK_WriteReg(MSP, 0x20001000)
T2940 000:842.189 - 0.011ms returns 0
T2940 000:842.198 JLINK_WriteReg(PSP, 0x20001000)
T2940 000:842.206 - 0.011ms returns 0
T2940 000:842.215 JLINK_WriteReg(CFBP, 0x00000000)
T2940 000:842.223 - 0.011ms returns 0
T2940 000:842.232 JLINK_SetBPEx(Addr = 0x20000000, Type = 0xFFFFFFF2)
T2940 000:842.241 - 0.012ms returns 0x00000008
T2940 000:842.250 JLINK_Go()
T2940 000:842.265   CPU_ReadMem(4 bytes @ 0xE0001000)
T2940 000:844.142 - 1.898ms
T2940 000:844.155 JLINK_IsHalted()
T2940 000:844.340 - 0.189ms returns FALSE
T2940 000:844.350 JLINK_HasError()
T2940 000:849.897 JLINK_IsHalted()
T2940 000:850.117 - 0.223ms returns FALSE
T2940 000:850.127 JLINK_HasError()
T2940 000:851.902 JLINK_IsHalted()
T2940 000:852.126 - 0.232ms returns FALSE
T2940 000:852.142 JLINK_HasError()
T2940 000:853.900 JLINK_IsHalted()
T2940 000:854.108 - 0.212ms returns FALSE
T2940 000:854.118 JLINK_HasError()
T2940 000:856.901 JLINK_IsHalted()
T2940 000:858.662   CPU_ReadMem(2 bytes @ 0x20000000)
T2940 000:858.919 - 2.025ms returns TRUE
T2940 000:858.934 JLINK_ReadReg(R15 (PC))
T2940 000:858.943 - 0.012ms returns 0x20000000
T2940 000:858.951 JLINK_ClrBPEx(BPHandle = 0x00000008)
T2940 000:858.958 - 0.010ms returns 0x00
T2940 000:858.966 JLINK_ReadReg(R0)
T2940 000:858.972 - 0.009ms returns 0x00000000
T2940 000:859.504 JLINK_WriteMem(0x20000164, 0x29C Bytes, ...)
T2940 000:859.515   Data:  40 F0 64 81 D5 E9 04 E4 D5 E9 07 63 04 EB 02 0C ...
T2940 000:859.531   CPU_WriteMem(668 bytes @ 0x20000164)
T2940 000:861.937 - 2.440ms returns 0x29C
T2940 000:861.951 JLINK_WriteMem(0x20000400, 0x164 Bytes, ...)
T2940 000:861.958   Data:  44 EA 83 23 0D E0 53 5A 43 F4 00 43 53 52 2A 89 ...
T2940 000:861.972   CPU_WriteMem(356 bytes @ 0x20000400)
T2940 000:863.357 - 1.409ms returns 0x164
T2940 000:863.367 JLINK_HasError()
T2940 000:863.375 JLINK_WriteReg(R0, 0x08001000)
T2940 000:863.383 - 0.011ms returns 0
T2940 000:863.391 JLINK_WriteReg(R1, 0x00000400)
T2940 000:863.397 - 0.009ms returns 0
T2940 000:863.405 JLINK_WriteReg(R2, 0x20000164)
T2940 000:863.412 - 0.009ms returns 0
T2940 000:863.419 JLINK_WriteReg(R3, 0x00000000)
T2940 000:863.426 - 0.009ms returns 0
T2940 000:863.433 JLINK_WriteReg(R4, 0x00000000)
T2940 000:863.440 - 0.009ms returns 0
T2940 000:863.447 JLINK_WriteReg(R5, 0x00000000)
T2940 000:863.454 - 0.009ms returns 0
T2940 000:863.461 JLINK_WriteReg(R6, 0x00000000)
T2940 000:863.468 - 0.009ms returns 0
T2940 000:863.475 JLINK_WriteReg(R7, 0x00000000)
T2940 000:863.482 - 0.009ms returns 0
T2940 000:863.489 JLINK_WriteReg(R8, 0x00000000)
T2940 000:863.502 - 0.015ms returns 0
T2940 000:863.509 JLINK_WriteReg(R9, 0x20000160)
T2940 000:863.516 - 0.009ms returns 0
T2940 000:863.524 JLINK_WriteReg(R10, 0x00000000)
T2940 000:863.530 - 0.009ms returns 0
T2940 000:863.538 JLINK_WriteReg(R11, 0x00000000)
T2940 000:863.544 - 0.009ms returns 0
T2940 000:863.552 JLINK_WriteReg(R12, 0x00000000)
T2940 000:863.558 - 0.009ms returns 0
T2940 000:863.566 JLINK_WriteReg(R13 (SP), 0x20001000)
T2940 000:863.573 - 0.010ms returns 0
T2940 000:863.580 JLINK_WriteReg(R14, 0x20000001)
T2940 000:863.587 - 0.009ms returns 0
T2940 000:863.594 JLINK_WriteReg(R15 (PC), 0x200000F4)
T2940 000:863.601 - 0.009ms returns 0
T2940 000:863.609 JLINK_WriteReg(XPSR, 0x01000000)
T2940 000:863.615 - 0.009ms returns 0
T2940 000:863.623 JLINK_WriteReg(MSP, 0x20001000)
T2940 000:863.629 - 0.009ms returns 0
T2940 000:863.637 JLINK_WriteReg(PSP, 0x20001000)
T2940 000:863.643 - 0.009ms returns 0
T2940 000:863.651 JLINK_WriteReg(CFBP, 0x00000000)
T2940 000:863.657 - 0.009ms returns 0
T2940 000:863.667 JLINK_SetBPEx(Addr = 0x20000000, Type = 0xFFFFFFF2)
T2940 000:863.674 - 0.011ms returns 0x00000009
T2940 000:863.684 JLINK_Go()
T2940 000:863.698   CPU_ReadMem(4 bytes @ 0xE0001000)
T2940 000:865.561 - 1.882ms
T2940 000:865.572 JLINK_IsHalted()
T2940 000:865.771 - 0.203ms returns FALSE
T2940 000:865.780 JLINK_HasError()
T2940 000:873.673 JLINK_IsHalted()
T2940 000:873.937 - 0.273ms returns FALSE
T2940 000:873.955 JLINK_HasError()
T2940 000:875.673 JLINK_IsHalted()
T2940 000:875.904 - 0.237ms returns FALSE
T2940 000:875.918 JLINK_HasError()
T2940 000:877.673 JLINK_IsHalted()
T2940 000:877.905 - 0.238ms returns FALSE
T2940 000:877.918 JLINK_HasError()
T2940 000:882.673 JLINK_IsHalted()
T2940 000:884.435   CPU_ReadMem(2 bytes @ 0x20000000)
T2940 000:884.633 - 1.964ms returns TRUE
T2940 000:884.643 JLINK_ReadReg(R15 (PC))
T2940 000:884.652 - 0.011ms returns 0x20000000
T2940 000:884.660 JLINK_ClrBPEx(BPHandle = 0x00000009)
T2940 000:884.667 - 0.012ms returns 0x00
T2940 000:884.677 JLINK_ReadReg(R0)
T2940 000:884.684 - 0.009ms returns 0x00000000
T2940 000:885.204 JLINK_WriteMem(0x20000164, 0x29C Bytes, ...)
T2940 000:885.215   Data:  0D 70 04 BF 02 20 B0 BD 20 68 84 F8 90 22 02 F0 ...
T2940 000:885.232   CPU_WriteMem(668 bytes @ 0x20000164)
T2940 000:887.584 - 2.387ms returns 0x29C
T2940 000:887.598 JLINK_WriteMem(0x20000400, 0x164 Bytes, ...)
T2940 000:887.605   Data:  1D FB 28 46 B0 BD 00 00 80 B5 82 B0 00 68 45 F6 ...
T2940 000:887.618   CPU_WriteMem(356 bytes @ 0x20000400)
T2940 000:889.032 - 1.438ms returns 0x164
T2940 000:889.043 JLINK_HasError()
T2940 000:889.051 JLINK_WriteReg(R0, 0x08001400)
T2940 000:889.059 - 0.011ms returns 0
T2940 000:889.067 JLINK_WriteReg(R1, 0x00000400)
T2940 000:889.074 - 0.009ms returns 0
T2940 000:889.081 JLINK_WriteReg(R2, 0x20000164)
T2940 000:889.088 - 0.009ms returns 0
T2940 000:889.095 JLINK_WriteReg(R3, 0x00000000)
T2940 000:889.102 - 0.009ms returns 0
T2940 000:889.109 JLINK_WriteReg(R4, 0x00000000)
T2940 000:889.116 - 0.009ms returns 0
T2940 000:889.123 JLINK_WriteReg(R5, 0x00000000)
T2940 000:889.130 - 0.009ms returns 0
T2940 000:889.138 JLINK_WriteReg(R6, 0x00000000)
T2940 000:889.144 - 0.009ms returns 0
T2940 000:889.152 JLINK_WriteReg(R7, 0x00000000)
T2940 000:889.158 - 0.009ms returns 0
T2940 000:889.166 JLINK_WriteReg(R8, 0x00000000)
T2940 000:889.172 - 0.009ms returns 0
T2940 000:889.180 JLINK_WriteReg(R9, 0x20000160)
T2940 000:889.186 - 0.009ms returns 0
T2940 000:889.194 JLINK_WriteReg(R10, 0x00000000)
T2940 000:889.200 - 0.009ms returns 0
T2940 000:889.208 JLINK_WriteReg(R11, 0x00000000)
T2940 000:889.214 - 0.009ms returns 0
T2940 000:889.222 JLINK_WriteReg(R12, 0x00000000)
T2940 000:889.228 - 0.009ms returns 0
T2940 000:889.236 JLINK_WriteReg(R13 (SP), 0x20001000)
T2940 000:889.243 - 0.010ms returns 0
T2940 000:889.250 JLINK_WriteReg(R14, 0x20000001)
T2940 000:889.257 - 0.009ms returns 0
T2940 000:889.264 JLINK_WriteReg(R15 (PC), 0x200000F4)
T2940 000:889.277 - 0.017ms returns 0
T2940 000:889.286 JLINK_WriteReg(XPSR, 0x01000000)
T2940 000:889.293 - 0.009ms returns 0
T2940 000:889.301 JLINK_WriteReg(MSP, 0x20001000)
T2940 000:889.307 - 0.009ms returns 0
T2940 000:889.315 JLINK_WriteReg(PSP, 0x20001000)
T2940 000:889.321 - 0.009ms returns 0
T2940 000:889.329 JLINK_WriteReg(CFBP, 0x00000000)
T2940 000:889.335 - 0.009ms returns 0
T2940 000:889.343 JLINK_SetBPEx(Addr = 0x20000000, Type = 0xFFFFFFF2)
T2940 000:889.350 - 0.010ms returns 0x0000000A
T2940 000:889.358 JLINK_Go()
T2940 000:889.371   CPU_ReadMem(4 bytes @ 0xE0001000)
T2940 000:891.223 - 1.871ms
T2940 000:891.236 JLINK_IsHalted()
T2940 000:891.423 - 0.190ms returns FALSE
T2940 000:891.432 JLINK_HasError()
T2940 000:896.676 JLINK_IsHalted()
T2940 000:896.903 - 0.231ms returns FALSE
T2940 000:896.914 JLINK_HasError()
T2940 000:898.674 JLINK_IsHalted()
T2940 000:898.861 - 0.191ms returns FALSE
T2940 000:898.872 JLINK_HasError()
T2940 000:900.676 JLINK_IsHalted()
T2940 000:900.907 - 0.235ms returns FALSE
T2940 000:900.917 JLINK_HasError()
T2940 000:902.679 JLINK_IsHalted()
T2940 000:902.901 - 0.226ms returns FALSE
T2940 000:902.911 JLINK_HasError()
T2940 000:905.680 JLINK_IsHalted()
T2940 000:907.452   CPU_ReadMem(2 bytes @ 0x20000000)
T2940 000:907.646 - 1.970ms returns TRUE
T2940 000:907.658 JLINK_ReadReg(R15 (PC))
T2940 000:907.666 - 0.011ms returns 0x20000000
T2940 000:907.678 JLINK_ClrBPEx(BPHandle = 0x0000000A)
T2940 000:907.685 - 0.010ms returns 0x00
T2940 000:907.694 JLINK_ReadReg(R0)
T2940 000:907.701 - 0.010ms returns 0x00000000
T2940 000:908.223 JLINK_WriteMem(0x20000164, 0x29C Bytes, ...)
T2940 000:908.233   Data:  F7 FF 41 F2 04 01 C4 F2 02 01 09 68 45 F2 08 62 ...
T2940 000:908.248   CPU_WriteMem(668 bytes @ 0x20000164)
T2940 000:910.588 - 2.372ms returns 0x29C
T2940 000:910.602 JLINK_WriteMem(0x20000400, 0x164 Bytes, ...)
T2940 000:910.608   Data:  6F 61 64 20 66 77 20 6F 6B 20 72 65 73 65 74 20 ...
T2940 000:910.622   CPU_WriteMem(356 bytes @ 0x20000400)
T2940 000:912.031 - 1.434ms returns 0x164
T2940 000:912.041 JLINK_HasError()
T2940 000:912.050 JLINK_WriteReg(R0, 0x08001800)
T2940 000:912.057 - 0.011ms returns 0
T2940 000:912.065 JLINK_WriteReg(R1, 0x00000400)
T2940 000:912.072 - 0.009ms returns 0
T2940 000:912.079 JLINK_WriteReg(R2, 0x20000164)
T2940 000:912.086 - 0.009ms returns 0
T2940 000:912.094 JLINK_WriteReg(R3, 0x00000000)
T2940 000:912.100 - 0.010ms returns 0
T2940 000:912.108 JLINK_WriteReg(R4, 0x00000000)
T2940 000:912.115 - 0.009ms returns 0
T2940 000:912.122 JLINK_WriteReg(R5, 0x00000000)
T2940 000:912.129 - 0.009ms returns 0
T2940 000:912.136 JLINK_WriteReg(R6, 0x00000000)
T2940 000:912.143 - 0.009ms returns 0
T2940 000:912.150 JLINK_WriteReg(R7, 0x00000000)
T2940 000:912.157 - 0.009ms returns 0
T2940 000:912.164 JLINK_WriteReg(R8, 0x00000000)
T2940 000:912.171 - 0.009ms returns 0
T2940 000:912.178 JLINK_WriteReg(R9, 0x20000160)
T2940 000:912.185 - 0.009ms returns 0
T2940 000:912.192 JLINK_WriteReg(R10, 0x00000000)
T2940 000:912.199 - 0.009ms returns 0
T2940 000:912.207 JLINK_WriteReg(R11, 0x00000000)
T2940 000:912.213 - 0.009ms returns 0
T2940 000:912.221 JLINK_WriteReg(R12, 0x00000000)
T2940 000:912.227 - 0.009ms returns 0
T2940 000:912.235 JLINK_WriteReg(R13 (SP), 0x20001000)
T2940 000:912.242 - 0.010ms returns 0
T2940 000:912.249 JLINK_WriteReg(R14, 0x20000001)
T2940 000:912.256 - 0.009ms returns 0
T2940 000:912.263 JLINK_WriteReg(R15 (PC), 0x200000F4)
T2940 000:912.270 - 0.009ms returns 0
T2940 000:912.278 JLINK_WriteReg(XPSR, 0x01000000)
T2940 000:912.284 - 0.009ms returns 0
T2940 000:912.292 JLINK_WriteReg(MSP, 0x20001000)
T2940 000:912.298 - 0.009ms returns 0
T2940 000:912.306 JLINK_WriteReg(PSP, 0x20001000)
T2940 000:912.312 - 0.009ms returns 0
T2940 000:912.320 JLINK_WriteReg(CFBP, 0x00000000)
T2940 000:912.326 - 0.009ms returns 0
T2940 000:912.334 JLINK_SetBPEx(Addr = 0x20000000, Type = 0xFFFFFFF2)
T2940 000:912.341 - 0.010ms returns 0x0000000B
T2940 000:912.349 JLINK_Go()
T2940 000:912.367   CPU_ReadMem(4 bytes @ 0xE0001000)
T2940 000:914.215 - 1.871ms
T2940 000:914.227 JLINK_IsHalted()
T2940 000:914.411 - 0.187ms returns FALSE
T2940 000:914.422 JLINK_HasError()
T2940 000:921.684 JLINK_IsHalted()
T2940 000:921.939 - 0.264ms returns FALSE
T2940 000:921.956 JLINK_HasError()
T2940 000:923.233 JLINK_IsHalted()
T2940 000:923.442 - 0.213ms returns FALSE
T2940 000:923.452 JLINK_HasError()
T2940 000:925.240 JLINK_IsHalted()
T2940 000:925.471 - 0.241ms returns FALSE
T2940 000:925.489 JLINK_HasError()
T2940 000:930.235 JLINK_IsHalted()
T2940 000:931.977   CPU_ReadMem(2 bytes @ 0x20000000)
T2940 000:932.185 - 1.954ms returns TRUE
T2940 000:932.197 JLINK_ReadReg(R15 (PC))
T2940 000:932.206 - 0.013ms returns 0x20000000
T2940 000:932.216 JLINK_ClrBPEx(BPHandle = 0x0000000B)
T2940 000:932.224 - 0.013ms returns 0x00
T2940 000:932.235 JLINK_ReadReg(R0)
T2940 000:932.243 - 0.011ms returns 0x00000000
T2940 000:932.816 JLINK_WriteMem(0x20000164, 0x29C Bytes, ...)
T2940 000:932.829   Data:  1E 80 93 F8 1F B0 0C F0 06 04 04 2C BE D0 00 2C ...
T2940 000:932.846   CPU_WriteMem(668 bytes @ 0x20000164)
T2940 000:935.192 - 2.384ms returns 0x29C
T2940 000:935.210 JLINK_WriteMem(0x20000400, 0x164 Bytes, ...)
T2940 000:935.218   Data:  B0 BD 00 00 80 B5 D0 F8 B8 32 8C 46 D3 F8 14 12 ...
T2940 000:935.236   CPU_WriteMem(356 bytes @ 0x20000400)
T2940 000:936.624 - 1.418ms returns 0x164
T2940 000:936.635 JLINK_HasError()
T2940 000:936.645 JLINK_WriteReg(R0, 0x08001C00)
T2940 000:936.652 - 0.011ms returns 0
T2940 000:936.661 JLINK_WriteReg(R1, 0x00000400)
T2940 000:936.668 - 0.009ms returns 0
T2940 000:936.677 JLINK_WriteReg(R2, 0x20000164)
T2940 000:936.683 - 0.009ms returns 0
T2940 000:936.692 JLINK_WriteReg(R3, 0x00000000)
T2940 000:936.698 - 0.009ms returns 0
T2940 000:936.707 JLINK_WriteReg(R4, 0x00000000)
T2940 000:936.713 - 0.009ms returns 0
T2940 000:936.722 JLINK_WriteReg(R5, 0x00000000)
T2940 000:936.729 - 0.010ms returns 0
T2940 000:936.737 JLINK_WriteReg(R6, 0x00000000)
T2940 000:936.744 - 0.009ms returns 0
T2940 000:936.753 JLINK_WriteReg(R7, 0x00000000)
T2940 000:936.759 - 0.009ms returns 0
T2940 000:936.768 JLINK_WriteReg(R8, 0x00000000)
T2940 000:936.775 - 0.009ms returns 0
T2940 000:936.783 JLINK_WriteReg(R9, 0x20000160)
T2940 000:936.790 - 0.009ms returns 0
T2940 000:936.798 JLINK_WriteReg(R10, 0x00000000)
T2940 000:936.805 - 0.011ms returns 0
T2940 000:936.816 JLINK_WriteReg(R11, 0x00000000)
T2940 000:936.826 - 0.013ms returns 0
T2940 000:936.837 JLINK_WriteReg(R12, 0x00000000)
T2940 000:936.846 - 0.013ms returns 0
T2940 000:936.856 JLINK_WriteReg(R13 (SP), 0x20001000)
T2940 000:936.865 - 0.012ms returns 0
T2940 000:936.875 JLINK_WriteReg(R14, 0x20000001)
T2940 000:936.883 - 0.011ms returns 0
T2940 000:936.893 JLINK_WriteReg(R15 (PC), 0x200000F4)
T2940 000:936.902 - 0.011ms returns 0
T2940 000:936.912 JLINK_WriteReg(XPSR, 0x01000000)
T2940 000:936.920 - 0.011ms returns 0
T2940 000:936.930 JLINK_WriteReg(MSP, 0x20001000)
T2940 000:936.938 - 0.011ms returns 0
T2940 000:936.948 JLINK_WriteReg(PSP, 0x20001000)
T2940 000:936.956 - 0.011ms returns 0
T2940 000:936.966 JLINK_WriteReg(CFBP, 0x00000000)
T2940 000:936.974 - 0.011ms returns 0
T2940 000:936.984 JLINK_SetBPEx(Addr = 0x20000000, Type = 0xFFFFFFF2)
T2940 000:936.993 - 0.012ms returns 0x0000000C
T2940 000:937.004 JLINK_Go()
T2940 000:937.019   CPU_ReadMem(4 bytes @ 0xE0001000)
T2940 000:938.901 - 1.906ms
T2940 000:938.919 JLINK_IsHalted()
T2940 000:939.109 - 0.195ms returns FALSE
T2940 000:939.122 JLINK_HasError()
T2940 000:945.236 JLINK_IsHalted()
T2940 000:945.452 - 0.219ms returns FALSE
T2940 000:945.462 JLINK_HasError()
T2940 000:947.239 JLINK_IsHalted()
T2940 000:947.444 - 0.209ms returns FALSE
T2940 000:947.455 JLINK_HasError()
T2940 000:949.237 JLINK_IsHalted()
T2940 000:949.429 - 0.195ms returns FALSE
T2940 000:949.440 JLINK_HasError()
T2940 000:951.239 JLINK_IsHalted()
T2940 000:951.432 - 0.197ms returns FALSE
T2940 000:951.442 JLINK_HasError()
T2940 000:953.240 JLINK_IsHalted()
T2940 000:955.054   CPU_ReadMem(2 bytes @ 0x20000000)
T2940 000:955.265 - 2.029ms returns TRUE
T2940 000:955.277 JLINK_ReadReg(R15 (PC))
T2940 000:955.286 - 0.012ms returns 0x20000000
T2940 000:955.294 JLINK_ClrBPEx(BPHandle = 0x0000000C)
T2940 000:955.301 - 0.010ms returns 0x00
T2940 000:955.309 JLINK_ReadReg(R0)
T2940 000:955.315 - 0.009ms returns 0x00000000
T2940 000:955.842 JLINK_WriteMem(0x20000164, 0x29C Bytes, ...)
T2940 000:955.853   Data:  FE F7 B4 FB 80 BD 00 00 FE E7 00 00 FE E7 00 00 ...
T2940 000:955.869   CPU_WriteMem(668 bytes @ 0x20000164)
T2940 000:958.202 - 2.365ms returns 0x29C
T2940 000:958.214 JLINK_WriteMem(0x20000400, 0x164 Bytes, ...)
T2940 000:958.221   Data:  7F F5 00 AF 20 68 08 EB 88 01 30 F8 1A 20 04 EB ...
T2940 000:958.236   CPU_WriteMem(356 bytes @ 0x20000400)
T2940 000:959.612 - 1.402ms returns 0x164
T2940 000:959.622 JLINK_HasError()
T2940 000:959.631 JLINK_WriteReg(R0, 0x08002000)
T2940 000:959.639 - 0.011ms returns 0
T2940 000:959.647 JLINK_WriteReg(R1, 0x00000400)
T2940 000:959.653 - 0.009ms returns 0
T2940 000:959.661 JLINK_WriteReg(R2, 0x20000164)
T2940 000:959.668 - 0.009ms returns 0
T2940 000:959.675 JLINK_WriteReg(R3, 0x00000000)
T2940 000:959.682 - 0.009ms returns 0
T2940 000:959.689 JLINK_WriteReg(R4, 0x00000000)
T2940 000:959.696 - 0.009ms returns 0
T2940 000:959.704 JLINK_WriteReg(R5, 0x00000000)
T2940 000:959.710 - 0.009ms returns 0
T2940 000:959.718 JLINK_WriteReg(R6, 0x00000000)
T2940 000:959.724 - 0.009ms returns 0
T2940 000:959.732 JLINK_WriteReg(R7, 0x00000000)
T2940 000:959.738 - 0.009ms returns 0
T2940 000:959.745 JLINK_WriteReg(R8, 0x00000000)
T2940 000:959.752 - 0.009ms returns 0
T2940 000:959.760 JLINK_WriteReg(R9, 0x20000160)
T2940 000:959.766 - 0.009ms returns 0
T2940 000:959.774 JLINK_WriteReg(R10, 0x00000000)
T2940 000:959.780 - 0.009ms returns 0
